Title: **.subckt opamp_openloop
Date: Thu Apr  1 12:26:17  2021
Plotname: AC Analysis
Flags: complex
No. Variables: 49
No. Points: 1001
Variables:
	0	frequency	frequency grid=3
	1	dcg	notype dims=1
	2	gbw	notype dims=1
	3	v(m.x1.xm1.msky130_fd_pr__pfet_01v8#body)	voltage
	4	v(m.x1.xm1.msky130_fd_pr__pfet_01v8#dbody)	voltage
	5	v(m.x1.xm1.msky130_fd_pr__pfet_01v8#sbody)	voltage
	6	v(m.x1.xm2.msky130_fd_pr__pfet_01v8#body)	voltage
	7	v(m.x1.xm2.msky130_fd_pr__pfet_01v8#dbody)	voltage
	8	v(m.x1.xm2.msky130_fd_pr__pfet_01v8#sbody)	voltage
	9	v(m.x1.xm3.msky130_fd_pr__nfet_01v8#body)	voltage
	10	v(m.x1.xm3.msky130_fd_pr__nfet_01v8#dbody)	voltage
	11	v(m.x1.xm3.msky130_fd_pr__nfet_01v8#sbody)	voltage
	12	v(m.x1.xm4.msky130_fd_pr__nfet_01v8#body)	voltage
	13	v(m.x1.xm4.msky130_fd_pr__nfet_01v8#dbody)	voltage
	14	v(m.x1.xm4.msky130_fd_pr__nfet_01v8#sbody)	voltage
	15	v(m.x1.xm5.msky130_fd_pr__pfet_01v8#body)	voltage
	16	v(m.x1.xm5.msky130_fd_pr__pfet_01v8#dbody)	voltage
	17	v(m.x1.xm5.msky130_fd_pr__pfet_01v8#sbody)	voltage
	18	v(m.x1.xm6.msky130_fd_pr__nfet_01v8#body)	voltage
	19	v(m.x1.xm6.msky130_fd_pr__nfet_01v8#dbody)	voltage
	20	v(m.x1.xm6.msky130_fd_pr__nfet_01v8#sbody)	voltage
	21	v(m.x1.xm7.msky130_fd_pr__pfet_01v8#body)	voltage
	22	v(m.x1.xm7.msky130_fd_pr__pfet_01v8#dbody)	voltage
	23	v(m.x1.xm7.msky130_fd_pr__pfet_01v8#sbody)	voltage
	24	v(m.x1.xm8.msky130_fd_pr__pfet_01v8#body)	voltage
	25	v(m.x1.xm8.msky130_fd_pr__pfet_01v8#dbody)	voltage
	26	v(m.x1.xm8.msky130_fd_pr__pfet_01v8#sbody)	voltage
	27	v(m.x1.xm9.msky130_fd_pr__nfet_01v8#body)	voltage
	28	v(m.x1.xm9.msky130_fd_pr__nfet_01v8#dbody)	voltage
	29	v(m.x1.xm9.msky130_fd_pr__nfet_01v8#sbody)	voltage
	30	v(net1)	voltage
	31	pm	notype dims=1
	32	i(v1)	current
	33	i(v2)	current
	34	i(v3)	current
	35	i(v4)	current
	36	v(vcm)	voltage
	37	v(vdd)	voltage
	38	v(ve)	voltage
	39	v(vin)	voltage
	40	v(vout)	voltage
	41	v(vsen)	voltage
	42	v(vss)	voltage
	43	v(x1.net1)	voltage
	44	v(x1.vbn)	voltage
	45	v(x1.voe1)	voltage
	46	v(x1.vp)	voltage
	47	v(x1.xc1.a)	voltage
	48	v(x1.xc1.b1)	voltage
Values:
 0	1.000000000000000e+00,0.000000000000000e+00
	5.738942000000000e+01,0.0
	4.830063000000000e+07,0.0
	7.043344829295274e-01,-3.123271401387500e-06
	7.043344829129496e-01,-3.123271552133052e-06
	7.043344829354685e-01,-3.123271390835562e-06
	7.043344832386569e-01,-3.123269506695151e-06
	7.043344836519814e-01,-3.123266401036782e-06
	7.043344830900332e-01,-3.123270443489465e-06
	-2.455371549686411e-12,-5.346077737444573e-14
	-6.138246833556633e-12,-6.670095073237580e-14
	-1.227861181250639e-12,-2.673068027618087e-14
	2.897798059199325e-10,2.285458131262435e-12
	7.244465291827025e-10,5.808207525063715e-12
	1.448900566233419e-10,1.142729312592796e-12
	8.824430075321714e-12,8.119017166206140e-14
	2.206106009415527e-11,1.969966344464691e-13
	4.412230066626734e-12,4.059511951397637e-14
	-1.784488925224295e-08,-9.576810623023788e-11
	-2.743263616771915e-08,-2.560042883117130e-10
	-8.922416744963762e-09,-4.788400420337405e-11
	-1.964335922051561e-08,-6.433969229029987e-11
	-2.833186455221657e-08,-1.617264775332222e-10
	-9.821690467166246e-09,-3.216987043185503e-11
	3.023442801813991e-20,-2.133909070325808e-18
	3.638000991374287e-20,-4.042760863921676e-18
	1.511743459210839e-20,-1.067053129148103e-18
	5.795564341216043e-10,1.919106913715455e-12
	8.693346402374149e-10,2.181602828622802e-12
	8.693346428498668e-10,2.181723831112552e-12
	-1.699625833751290e-12,-1.190331048697805e-07
	1.142698000000000e+00,0.0
	3.533723365875975e-10,-4.530202317938898e-15
	-1.475938430966847e-01,2.104247272471602e-06
	-1.346195368897737e-01,1.921144103894766e-06
	-6.830973427551227e-08,-3.203215470648502e-11
	0.000000000000000e+00,0.000000000000000e+00
	0.000000000000000e+00,0.000000000000000e+00
	-6.730973429001976e+01,9.605836879212305e-04
	9.999999999949020e-01,1.087183187124165e-08
	-7.404074187388887e+02,1.056642536999761e-02
	1.000000000000000e+00,0.000000000000000e+00
	0.000000000000000e+00,0.000000000000000e+00
	2.318225317284525e+01,-3.292045143637998e-04
	-1.964233723811412e-01,-2.230636446748806e-06
	2.318225328763544e+01,-3.243626435284434e-04
	7.043344829414097e-01,-3.123271380283706e-06
	-7.404074187388887e+02,1.056642549815659e-02
	-7.404074187388887e+02,1.056642538128913e-02

 1	1.023292992280754e+00,0.000000000000000e+00
	0.000000000000000e+00,0.000000000000000e+00
	0.000000000000000e+00,0.000000000000000e+00
	7.043344829289371e-01,-3.196374405750516e-06
	7.043344829123593e-01,-3.196374560007373e-06
	7.043344829348782e-01,-3.196374394952794e-06
	7.043344832380667e-01,-3.196372466925268e-06
	7.043344836513912e-01,-3.196369288927028e-06
	7.043344830894430e-01,-3.196373425540250e-06
	-2.455371521121516e-12,-5.470603761983759e-14
	-6.138246797942556e-12,-6.825461238956354e-14
	-1.227861166968038e-12,-2.735331719076832e-14
	2.897798074682576e-10,2.338693144753806e-12
	7.244465330356660e-10,5.943497695316142e-12
	1.448900573975050e-10,1.169346825090879e-12
	8.824430093240220e-12,8.308132928529073e-14
	2.206106013588181e-11,2.015852644855840e-13
	4.412230075586004e-12,4.154069911016011e-14
	-1.784488931680909e-08,-9.799882305333858e-11
	-2.743263634008644e-08,-2.619673804848834e-10
	-8.922416777246798e-09,-4.899936147563746e-11
	-1.964335926382195e-08,-6.583834640989692e-11
	-2.833186466107370e-08,-1.654935569383516e-10
	-9.821690488819431e-09,-3.291919805735815e-11
	3.165933161812297e-20,-2.183614218664260e-18
	3.809454488728674e-20,-4.136928886588658e-18
	1.582989678780773e-20,-1.091907999866417e-18
	5.795564353887027e-10,1.963808366034124e-12
	8.693346416894561e-10,2.232418451163431e-12
	8.693346442898843e-10,2.232542272163416e-12
	-1.779787720935343e-12,-1.218057420615017e-07
	0.000000000000000e+00,0.000000000000000e+00
	3.533758529941757e-10,-4.615262284420623e-15
	-1.475938430952755e-01,2.153335389727685e-06
	-1.346195368884871e-01,1.965960704108371e-06
	-6.830973427420237e-08,-3.277822457903312e-11
	0.000000000000000e+00,0.000000000000000e+00
	0.000000000000000e+00,0.000000000000000e+00
	-6.730973428937646e+01,9.829922590372517e-04
	9.999999999949020e-01,1.062435876434727e-08
	-7.404074187318125e+02,1.081291976431794e-02
	1.000000000000000e+00,0.000000000000000e+00
	0.000000000000000e+00,0.000000000000000e+00
	2.318225317262479e+01,-3.368842801724119e-04
	-1.964233723815609e-01,-2.282496293002046e-06
	2.318225328741823e+01,-3.319296276771681e-04
	7.043344829408195e-01,-3.196374384155157e-06
	-7.404074187318125e+02,1.081291989546213e-02
	-7.404074187318126e+02,1.081291977587247e-02

 2	1.047128548050899e+00,0.000000000000000e+00
	0.000000000000000e+00,0.000000000000000e+00
	0.000000000000000e+00,0.000000000000000e+00
	7.043344829283187e-01,-3.271172170130237e-06
	7.043344829117409e-01,-3.271172327980190e-06
	7.043344829342598e-01,-3.271172159081006e-06
	7.043344832374483e-01,-3.271170186144099e-06
	7.043344836507728e-01,-3.271166934120973e-06
	7.043344830888246e-01,-3.271171167088019e-06
	-2.455371491210402e-12,-5.598030373050650e-14
	-6.138246760650043e-12,-6.984446354571054e-14
	-1.227861152012319e-12,-2.799045719619978e-14
	2.897798090895528e-10,2.393168164304683e-12
	7.244465370702137e-10,6.081939186712842e-12
	1.448900582081531e-10,1.196584340752707e-12
	8.824430112003190e-12,8.501653772901070e-14
	2.206106017957486e-11,2.062807777002091e-13
	4.412230084967505e-12,4.250830413486429e-14
	-1.784488938441812e-08,-1.002815001495014e-10
	-2.743263652057713e-08,-2.680693712304985e-10
	-8.922416811051283e-09,-5.014069885789420e-11
	-1.964335930916922e-08,-6.737190889217469e-11
	-2.833186477506108e-08,-1.693483832177867e-10
	-9.821690511493085e-09,-3.368597987737871e-11
	3.315138885585650e-20,-2.234477150129412e-18
	3.988988340468103e-20,-4.233290366073752e-18
	1.657593629231691e-20,-1.117341815641592e-18
	5.795564367155169e-10,2.009551055540804e-12
	8.693346432099289e-10,2.284417731514429e-12
	8.693346457977667e-10,2.284544436676196e-12
	-1.863727521469759e-12,-1.246429622698436e-07
	0.000000000000000e+00,0.000000000000000e+00
	3.533797949930126e-10,-5.086889299216133e-15
	-1.475938430937997e-01,2.203565233908227e-06
	-1.346195368871398e-01,2.011819682323969e-06
	-6.830973427283074e-08,-3.354205801997523e-11
	0.000000000000000e+00,0.000000000000000e+00
	0.000000000000000e+00,0.000000000000000e+00
	-6.730973428870281e+01,1.005922025659570e-03
	9.999999999949019e-01,1.038251883309976e-08
	-7.404074187244023e+02,1.106514731181348e-02
	1.000000000000000e+00,0.000000000000000e+00
	0.000000000000000e+00,0.000000000000000e+00
	2.318225317239392e+01,-3.447426664852588e-04
	-1.964233723820006e-01,-2.335566349000652e-06
	2.318225328719078e+01,-3.396726053077962e-04
	7.043344829402011e-01,-3.271172148031863e-06
	-7.404074187244023e+02,1.106514744601241e-02
	-7.404074187244024e+02,1.106514732363716e-02

 3	1.071519305237606e+00,0.000000000000000e+00
	0.000000000000000e+00,0.000000000000000e+00
	0.000000000000000e+00,0.000000000000000e+00
	7.043344829276709e-01,-3.347704353291253e-06
	7.043344829110931e-01,-3.347704514817997e-06
	7.043344829336120e-01,-3.347704341984656e-06
	7.043344832368005e-01,-3.347702323092290e-06
	7.043344836501249e-01,-3.347698995320012e-06
	7.043344830881768e-01,-3.347703326885258e-06
	-2.455371459889621e-12,-5.728425133921210e-14
	-6.138246721599996e-12,-7.147134716094498e-14
	-1.227861136351760e-12,-2.864243811254008e-14
	2.897798107872573e-10,2.448912073291348e-12
	7.244465412949036e-10,6.223605402764678e-12
	1.448900590570060e-10,1.224456301269542e-12
	8.824430131650433e-12,8.699682306635308e-14
	2.206106022532709e-11,2.110856637136018e-13
	4.412230094791145e-12,4.349844762508049e-14
	-1.784488945521347e-08,-1.026173478243312e-10
	-2.743263670957407e-08,-2.743134959048048e-10
	-8.922416846448920e-09,-5.130862150232861e-11
	-1.964335935665366e-08,-6.894119285225608e-11
	-2.833186489442053e-08,-1.732930002514348e-10
	-9.821690535235321e-09,-3.447062244978508e-11
	3.471376458478120e-20,-2.286524833061273e-18
	4.176983361962142e-20,-4.331896394677931e-18
	1.735713555544621e-20,-1.143368061889658e-18
	5.795564381048622e-10,2.056359235614826e-12
	8.693346448020597e-10,2.337628240382387e-12
	8.693346473767140e-10,2.337757896886711e-12
	-1.951623282925248e-12,-1.275462698265079e-07
	0.000000000000000e+00,0.000000000000000e+00
	3.533839120335619e-10,-5.540339531371193e-15
	-1.475938430922543e-01,2.254963437541346e-06
	-1.346195368857289e-01,2.058745353983697e-06
	-6.830973427139442e-08,-3.432365502931134e-11
	0.000000000000000e+00,0.000000000000000e+00
	0.000000000000000e+00,0.000000000000000e+00
	-6.730973428799739e+01,1.029385145453897e-03
	9.999999999949019e-01,1.014618385076644e-08
	-7.404074187166426e+02,1.132324174686787e-02
	1.000000000000000e+00,0.000000000000000e+00
	0.000000000000000e+00,0.000000000000000e+00
	2.318225317215217e+01,-3.527838399227602e-04
	-1.964233723824612e-01,-2.389874753190670e-06
	2.318225328695260e+01,-3.475956818495372e-04
	7.043344829395533e-01,-3.347704330678149e-06
	-7.404074187166426e+02,1.132324188419268e-02
	-7.404074187166427e+02,1.132324175896695e-02

 4	1.096478196143185e+00,0.000000000000000e+00
	0.000000000000000e+00,0.000000000000000e+00
	0.000000000000000e+00,0.000000000000000e+00
	7.043344829269930e-01,-3.426011533609927e-06
	7.043344829104152e-01,-3.426011698899104e-06
	7.043344829329341e-01,-3.426011522039969e-06
	7.043344832361226e-01,-3.426009456121699e-06
	7.043344836494470e-01,-3.426006050835841e-06
	7.043344830874989e-01,-3.426010483295940e-06
	-2.455371427092735e-12,-5.861857181623702e-14
	-6.138246680709567e-12,-7.313612583049490e-14
	-1.227861119953139e-12,-2.930960562870143e-14
	2.897798125649723e-10,2.505954427872038e-12
	7.244465457186977e-10,6.368571456774166e-12
	1.448900599458641e-10,1.252977484723697e-12
	8.824430152223620e-12,8.902323527081547e-14
	2.206106027323555e-11,2.160024701399259e-13
	4.412230105077758e-12,4.451165456799311e-14
	-1.784488952934531e-08,-1.050076045751772e-10
	-2.743263690747819e-08,-2.807030652253370e-10
	-8.922416883514804e-09,-5.250374865698268e-11
	-1.964335940637596e-08,-7.054703034526428e-11
	-2.833186501940523e-08,-1.773294995274492e-10
	-9.821690560096494e-09,-3.527354180245296e-11
	3.634977281328499e-20,-2.339784863980812e-18
	4.373838315855770e-20,-4.432799254803913e-18
	1.817515160556767e-20,-1.170000538146147e-18
	5.795564395596853e-10,2.104257724572710e-12
	8.693346464692255e-10,2.392078190683281e-12
	8.693346490300749e-10,2.392210867275773e-12
	-2.043661443995993e-12,-1.305172041035826e-07
	0.000000000000000e+00,0.000000000000000e+00
	3.533881690340871e-10,-6.449622233743265e-15
	-1.475938430906363e-01,2.307557252634795e-06
	-1.346195368842517e-01,2.106762599225901e-06
	-6.830973426989047e-08,-3.512390378546115e-11
	0.000000000000000e+00,0.000000000000000e+00
	0.000000000000000e+00,0.000000000000000e+00
	-6.730973428725876e+01,1.053394058876852e-03
	9.999999999949017e-01,9.915228509411421e-09
	-7.404074187085178e+02,1.158733991456610e-02
	1.000000000000000e+00,0.000000000000000e+00
	0.000000000000000e+00,0.000000000000000e+00
	2.318225317189904e+01,-3.610120640214867e-04
	-1.964233723829433e-01,-2.445450300606736e-06
	2.318225328670321e+01,-3.557030582224247e-04
	7.043344829388754e-01,-3.426011510470101e-06
	-7.404074187085178e+02,1.158734005508962e-02
	-7.404074187085178e+02,1.158733992694700e-02

 5	1.122018454301963e+00,0.000000000000000e+00
	0.000000000000000e+00,0.000000000000000e+00
	0.000000000000000e+00,0.000000000000000e+00
	7.043344829262831e-01,-3.506135230589592e-06
	7.043344829097054e-01,-3.506135399728841e-06
	7.043344829322242e-01,-3.506135218750138e-06
	7.043344832354127e-01,-3.506133104710588e-06
	7.043344836487371e-01,-3.506129620105622e-06
	7.043344830867890e-01,-3.506134155810723e-06
	-2.455371392750180e-12,-5.998397263596100e-14
	-6.138246637892035e-12,-7.483968224204812e-14
	-1.227861102781677e-12,-2.999231348573239e-14
	2.897798144264683e-10,2.564325472658030e-12
	7.244465503509784e-10,6.516914211661563e-12
	1.448900608766127e-10,1.282163013424078e-12
	8.824430173766397e-12,9.109684877297068e-14
	2.206106032340189e-11,2.210338039350285e-13
	4.412230115849166e-12,4.554846217933427e-14
	-1.784488960697087e-08,-1.074535377478001e-10
	-2.743263711470923e-08,-2.872414670263056e-10
	-8.922416922327546e-09,-5.372671399408958e-11
	-1.964335945844161e-08,-7.219027280748887e-11
	-2.833186515028027e-08,-1.814600212511630e-10
	-9.821690586129335e-09,-3.609516365384850e-11
	3.806288373415898e-20,-2.394285482222707e-18
	4.579970757898397e-20,-4.536052446677836e-18
	1.903171956439443e-20,-1.197253365383146e-18
	5.795564410830723e-10,2.153271918827170e-12
	8.693346482149624e-10,2.447796452501326e-12
	8.693346507613562e-10,2.447932219528893e-12
	-2.140037229961118e-12,-1.335573403297374e-07
	0.000000000000000e+00,0.000000000000000e+00
	3.533927460719166e-10,-6.502736588210673e-15
	-1.475938430889418e-01,2.361374565125337e-06
	-1.346195368827048e-01,2.155896878741930e-06
	-6.830973426831561e-08,-3.594191611000497e-11
	0.000000000000000e+00,0.000000000000000e+00
	0.000000000000000e+00,0.000000000000000e+00
	-6.730973428648531e+01,1.077961495772055e-03
	9.999999999949017e-01,9.689530353455651e-09
	-7.404074187000098e+02,1.185758184325163e-02
	1.000000000000000e+00,0.000000000000000e+00
	0.000000000000000e+00,0.000000000000000e+00
	2.318225317163397e+01,-3.694317014947441e-04
	-1.964233723834481e-01,-2.502322458139588e-06
	2.318225328644206e+01,-3.639990330647009e-04
	7.043344829381655e-01,-3.506135206910776e-06
	-7.404074187000098e+02,1.185758198704837e-02
	-7.404074187000099e+02,1.185758185592093e-02

 6	1.148153621496882e+00,0.000000000000000e+00
	0.000000000000000e+00,0.000000000000000e+00
	0.000000000000000e+00,0.000000000000000e+00
	7.043344829255399e-01,-3.588117926874755e-06
	7.043344829089622e-01,-3.588118099953756e-06
	7.043344829314810e-01,-3.588117914759527e-06
	7.043344832346695e-01,-3.588115751477805e-06
	7.043344836479939e-01,-3.588112185706147e-06
	7.043344830860458e-01,-3.588116827061140e-06
	-2.455371356789108e-12,-6.138117775197274e-14
	-6.138246593056568e-12,-7.658291964376434e-14
	-1.227861084800947e-12,-3.069092366437590e-14
	2.897798163756940e-10,2.624056156749711e-12
	7.244465552015716e-10,6.668712320718594e-12
	1.448900618512262e-10,1.312028361924224e-12
	8.824430196324454e-12,9.321876303014440e-14
	2.206106037593249e-11,2.261823327786841e-13
	4.412230127128215e-12,4.660942018822296e-14
	-1.784488968825480e-08,-1.099564442083359e-10
	-2.743263733170676e-08,-2.939321680548704e-10
	-8.922416962969474e-09,-5.497816594605493e-11
	-1.964335951296103e-08,-7.387179150782897e-11
	-2.833186528732325e-08,-1.856867554798547e-10
	-9.821690613389067e-09,-3.693592363875017e-11
	3.985673108534166e-20,-2.450055584908994e-18
	4.795817922635598e-20,-4.641710716716725e-18
	1.992865632740650e-20,-1.225140993496814e-18
	5.795564426782542e-10,2.203427806352629e-12
	8.693346500429732e-10,2.504812568396281e-12
	8.693346525742301e-10,2.504951497844420e-12
	-2.240955066783672e-12,-1.366682904254306e-07
	0.000000000000000e+00,0.000000000000000e+00
	3.533973719249337e-10,-6.154165891367314e-15
	-1.475938430871675e-01,2.416443909664241e-06
	-1.346195368810849e-01,2.206174243722536e-06
	-6.830973426666655e-08,-3.677858018136249e-11
	0.000000000000000e+00,0.000000000000000e+00
	0.000000000000000e+00,0.000000000000000e+00
	-6.730973428567539e+01,1.103100482119656e-03
	9.999999999949019e-01,9.468969714749385e-09
	-7.404074186911007e+02,1.213411081877128e-02
	1.000000000000000e+00,0.000000000000000e+00
	0.000000000000000e+00,0.000000000000000e+00
	2.318225317135641e+01,-3.780472165457409e-04
	-1.964233723839766e-01,-2.560521380159797e-06
	2.318225328616860e+01,-3.724880050120108e-04
	7.043344829374223e-01,-3.588117902644393e-06
	-7.404074186911007e+02,1.213411096591747e-02
	-7.404074186911007e+02,1.213411083173568e-02

 7	1.174897554939529e+00,0.000000000000000e+00
	0.000000000000000e+00,0.000000000000000e+00
	0.000000000000000e+00,0.000000000000000e+00
	7.043344829247614e-01,-3.672003090775950e-06
	7.043344829081837e-01,-3.672003267886471e-06
	7.043344829307026e-01,-3.672003078378524e-06
	7.043344832338910e-01,-3.672000864707630e-06
	7.043344836472154e-01,-3.671997215878660e-06
	7.043344830852674e-01,-3.672001965344455e-06
	-2.455371319133245e-12,-6.281092798092008e-14
	-6.138246546108076e-12,-7.836676232318984e-14
	-1.227861065972812e-12,-3.140580657699645e-14
	2.897798184167837e-10,2.685178150146220e-12
	7.244465602807661e-10,6.824046269311468e-12
	1.448900628717717e-10,1.342589365227124e-12
	8.824430219945638e-12,9.539010310936183e-14
	2.206106043093877e-11,2.314507864890326e-13
	4.412230138938829e-12,4.769509112863852e-14
	-1.784488977336953e-08,-1.125176510309116e-10
	-2.743263755893107e-08,-3.007787158092565e-10
	-8.922417005526797e-09,-5.625876804926445e-11
	-1.964335957004987e-08,-7.559247800975147e-11
	-2.833186543082486e-08,-1.900119432839461e-10
	-9.821690641933510e-09,-3.779626753922794e-11
	4.173511985756424e-20,-2.507124742271531e-18
	5.021837650842195e-20,-4.749830086556766e-18
	2.086786441772966e-20,-1.253678208969318e-18
	5.795564443486145e-10,2.254751980464377e-12
	8.693346519571354e-10,2.563156769067303e-12
	8.693346544725420e-10,2.563298934598270e-12
	-2.346629014725512e-12,-1.398517038575709e-07
	0.000000000000000e+00,0.000000000000000e+00
	3.534022119101997e-10,-5.848297635865554e-15
	-1.475938430853095e-01,2.472794484746728e-06
	-1.346195368793887e-01,2.257621351447398e-06
	-6.830973426493970e-08,-3.763478417795341e-11
	0.000000000000000e+00,0.000000000000000e+00
	0.000000000000000e+00,0.000000000000000e+00
	-6.730973428482730e+01,1.128824346942888e-03
	9.999999999949019e-01,9.253429649122501e-09
	-7.404074186817717e+02,1.241707346044724e-02
	1.000000000000000e+00,0.000000000000000e+00
	0.000000000000000e+00,0.000000000000000e+00
	2.318225317106577e+01,-3.868631772345684e-04
	-1.964233723845300e-01,-2.620077924506032e-06
	2.318225328588225e+01,-3.811744750296179e-04
	7.043344829366438e-01,-3.672003065981195e-06
	-7.404074186817717e+02,1.241707361102091e-02
